Circuit: Level 4 - CMOS diode RLC mixed transient

Transient Analysis
No. of Data Rows : 101

----------------------------------------------------------------------------------------------------------------------------------------------------------------------------------------------------------------
Index   time                v(vdd)              v(in)               v(supply)           v(rail)             v(out)              v(sense)            vdd#branch          vin#branch          l1#branch
----------------------------------------------------------------------------------------------------------------------------------------------------------------------------------------------------------------
       0    0.0000000000e+00    0.0000000000e+00    0.0000000000e+00    0.0000000000e+00    0.0000000000e+00    0.0000000000e+00    0.0000000000e+00    0.0000000000e+00    0.0000000000e+00    0.0000000000e+00
       1    5.0000000000e-06    5.0000000000e+00    2.2000000000e+00    4.9660219714e+00    4.8674692638e+00    6.6510858672e-03    3.5240045538e-05   -1.6989014279e-03    0.0000000000e+00    1.6989014279e-03
       2    1.0000000000e-05    5.0000000000e+00    2.2000000000e+00    4.9629611258e+00    4.9527489574e+00    1.5600545781e-02    1.5408651184e-04   -1.8519437079e-03    0.0000000000e+00    1.8519437079e-03
       3    1.5000000000e-05    5.0000000000e+00    2.2000000000e+00    4.9626412773e+00    4.9615976826e+00    2.4691167828e-02    3.6195100165e-04   -1.8679361352e-03    0.0000000000e+00    1.8679361352e-03
       4    2.0000000000e-05    5.0000000000e+00    2.2000000000e+00    4.9626121531e+00    4.9625524709e+00    3.3708335506e-02    6.5771486872e-04   -1.8693923445e-03    0.0000000000e+00    1.8693923445e-03
       5    2.5000000000e-05    5.0000000000e+00    2.2000000000e+00    4.9626142552e+00    4.9626599981e+00    4.2630702970e-02    1.0396088939e-03   -1.8692872375e-03    0.0000000000e+00    1.8692872375e-03
       6    3.0000000000e-05    5.0000000000e+00    2.2000000000e+00    4.9626196654e+00    4.9626762078e+00    5.1457567050e-02    1.5058263331e-03   -1.8690167287e-03    0.0000000000e+00    1.8690167287e-03
       7    3.5000000000e-05    5.0000000000e+00    2.2000000000e+00    4.9626253767e+00    4.9626825335e+00    6.0190413851e-02    2.0545881235e-03   -1.8687311655e-03    0.0000000000e+00    1.8687311655e-03
       8    4.0000000000e-05    5.0000000000e+00    2.2000000000e+00    4.9626310661e+00    4.9626877504e+00    6.8830932395e-02    2.6841492620e-03   -1.8684466945e-03    0.0000000000e+00    1.8684466945e-03
       9    4.5000000000e-05    5.0000000000e+00    2.2000000000e+00    4.9626366999e+00    4.9626928043e+00    7.7380801397e-02    3.3927988608e-03   -1.8681650054e-03    0.0000000000e+00    1.8681650054e-03
      10    5.0000000000e-05    5.0000000000e+00    2.2000000000e+00    4.9626422754e+00    4.9626977980e+00    8.5841667062e-02    4.1788595351e-03   -1.8678862318e-03    0.0000000000e+00    1.8678862318e-03
      11    5.5000000000e-05    5.0000000000e+00    2.2000000000e+00    4.9626477932e+00    4.9627027432e+00    9.4215141442e-02    5.0406867337e-03   -1.8676103406e-03    0.0000000000e+00    1.8676103406e-03
      12    6.0000000000e-05    5.0000000000e+00    2.2000000000e+00    4.9626532544e+00    4.9627076419e+00    1.0250280298e-01    5.9766680756e-03   -1.8673372819e-03    0.0000000000e+00    1.8673372819e-03
      13    6.5000000000e-05    5.0000000000e+00    2.2000000000e+00    4.9626586599e+00    4.9627124952e+00    1.1070619730e-01    6.9852227005e-03   -1.8670670050e-03    0.0000000000e+00    1.8670670050e-03
      14    7.0000000000e-05    5.0000000000e+00    2.2000000000e+00    4.9626640108e+00    4.9627173037e+00    1.1882683792e-01    8.0648006344e-03   -1.8667994597e-03    0.0000000000e+00    1.8667994597e-03
      15    7.5000000000e-05    5.0000000000e+00    2.2000000000e+00    4.9626693081e+00    4.9627220682e+00    1.2686620709e-01    9.2138821676e-03   -1.8665345972e-03    0.0000000000e+00    1.8665345972e-03
      16    8.0000000000e-05    5.0000000000e+00    2.2000000000e+00    4.9626745526e+00    4.9627267896e+00    1.3482575644e-01    1.0430977247e-02   -1.8662723696e-03    0.0000000000e+00    1.8662723696e-03
      17    8.5000000000e-05    5.0000000000e+00    2.2000000000e+00    4.9626797454e+00    4.9627314685e+00    1.4270690774e-01    1.1714624883e-02   -1.8660127298e-03    0.0000000000e+00    1.8660127298e-03
      18    9.0000000000e-05    5.0000000000e+00    2.2000000000e+00    4.9626848874e+00    4.9627361058e+00    1.5051105360e-01    1.3063392565e-02   -1.8657556320e-03    0.0000000000e+00    1.8657556320e-03
      19    9.5000000000e-05    5.0000000000e+00    2.2000000000e+00    4.9626899794e+00    4.9627407020e+00    1.5823955811e-01    1.4475875696e-02   -1.8655010309e-03    0.0000000000e+00    1.8655010309e-03
      20    1.0000000000e-04    5.0000000000e+00    2.2000000000e+00    4.9626950223e+00    4.9627452579e+00    1.6589375753e-01    1.5950697031e-02   -1.8652488827e-03    0.0000000000e+00    1.8652488827e-03
      21    1.0500000000e-04    5.0000000000e+00    2.2000000000e+00    4.9627000171e+00    4.9627497742e+00    1.7347496091e-01    1.7486506138e-02   -1.8649991438e-03    0.0000000000e+00    1.8649991438e-03
      22    1.1000000000e-04    5.0000000000e+00    2.2000000000e+00    4.9627049646e+00    4.9627542515e+00    1.8098445073e-01    1.9081978860e-02   -1.8647517722e-03    0.0000000000e+00    1.8647517722e-03
      23    1.1500000000e-04    5.0000000000e+00    2.2000000000e+00    4.9627098655e+00    4.9627586906e+00    1.8842348349e-01    2.0735816797e-02   -1.8645067261e-03    0.0000000000e+00    1.8645067261e-03
      24    1.2000000000e-04    5.0000000000e+00    2.2000000000e+00    4.9627147207e+00    4.9627630920e+00    1.9579329033e-01    2.2446746790e-02   -1.8642639650e-03    0.0000000000e+00    1.8642639650e-03
      25    1.2500000000e-04    5.0000000000e+00    2.2000000000e+00    4.9627195310e+00    4.9627674565e+00    2.0309507758e-01    2.4213520427e-02   -1.8640234491e-03    0.0000000000e+00    1.8640234491e-03
      26    1.3000000000e-04    5.0000000000e+00    2.2000000000e+00    4.9627242972e+00    4.9627717845e+00    2.1033002732e-01    2.6034913553e-02   -1.8637851393e-03    0.0000000000e+00    1.8637851393e-03
      27    1.3500000000e-04    5.0000000000e+00    2.2000000000e+00    4.9627290201e+00    4.9627760768e+00    2.1749929797e-01    2.7909725788e-02   -1.8635489973e-03    0.0000000000e+00    1.8635489973e-03
      28    1.4000000000e-04    5.0000000000e+00    2.2000000000e+00    4.9627337003e+00    4.9627803340e+00    2.2460402475e-01    2.9836780060e-02   -1.8633149857e-03    0.0000000000e+00    1.8633149857e-03
      29    1.4500000000e-04    5.0000000000e+00    2.2000000000e+00    4.9627383386e+00    4.9627845565e+00    2.3164532029e-01    3.1814922147e-02   -1.8630830677e-03    0.0000000000e+00    1.8630830677e-03
      30    1.5000000000e-04    5.0000000000e+00    2.2000000000e+00    4.9627429359e+00    4.9627887450e+00    2.3862427505e-01    3.3843020227e-02   -1.8628532073e-03    0.0000000000e+00    1.8628532073e-03
      31    1.5500000000e-04    5.0000000000e+00    2.2000000000e+00    4.9627474926e+00    4.9627929001e+00    2.4554195787e-01    3.5919964440e-02   -1.8626253692e-03    0.0000000000e+00    1.8626253692e-03
      32    1.6000000000e-04    5.0000000000e+00    2.2000000000e+00    4.9627520096e+00    4.9627970223e+00    2.5239941643e-01    3.8044666455e-02   -1.8623995188e-03    0.0000000000e+00    1.8623995188e-03
      33    1.6500000000e-04    5.0000000000e+00    2.2000000000e+00    4.9627564876e+00    4.9628011122e+00    2.5919767775e-01    4.0216059049e-02   -1.8621756222e-03    0.0000000000e+00    1.8621756222e-03
      34    1.7000000000e-04    5.0000000000e+00    2.2000000000e+00    4.9627609271e+00    4.9628051702e+00    2.6593774858e-01    4.2433095697e-02   -1.8619536461e-03    0.0000000000e+00    1.8619536461e-03
      35    1.7500000000e-04    5.0000000000e+00    2.2000000000e+00    4.9627653288e+00    4.9628091970e+00    2.7262061593e-01    4.4694750164e-02   -1.8617335580e-03    0.0000000000e+00    1.8617335580e-03
      36    1.8000000000e-04    5.0000000000e+00    2.2000000000e+00    4.9627696935e+00    4.9628131929e+00    2.7924724743e-01    4.7000016112e-02   -1.8615153259e-03    0.0000000000e+00    1.8615153259e-03
      37    1.8500000000e-04    5.0000000000e+00    2.2000000000e+00    4.9627740216e+00    4.9628171586e+00    2.8581859183e-01    4.9347906712e-02   -1.8612989185e-03    0.0000000000e+00    1.8612989185e-03
      38    1.9000000000e-04    5.0000000000e+00    2.2000000000e+00    4.9627783139e+00    4.9628210945e+00    2.9233557932e-01    5.1737454263e-02   -1.8610843050e-03    0.0000000000e+00    1.8610843050e-03
      39    1.9500000000e-04    5.0000000000e+00    2.2000000000e+00    4.9627825709e+00    4.9628250011e+00    2.9879912204e-01    5.4167709822e-02   -1.8608714553e-03    0.0000000000e+00    1.8608714553e-03
      40    2.0000000000e-04    5.0000000000e+00    2.2000000000e+00    4.9627867932e+00    4.9628288789e+00    3.0521011440e-01    5.6637742840e-02   -1.8606603399e-03    0.0000000000e+00    1.8606603399e-03
      41    2.0500000000e-04    5.0000000000e+00    2.2000000000e+00    4.9627909814e+00    4.9628327284e+00    3.1156943348e-01    5.9146640805e-02   -1.8604509299e-03    0.0000000000e+00    1.8604509299e-03
      42    2.1000000000e-04    5.0000000000e+00    2.2000000000e+00    4.9627951361e+00    4.9628365499e+00    3.1787793942e-01    6.1693508890e-02   -1.8602431968e-03    0.0000000000e+00    1.8602431968e-03
      43    2.1500000000e-04    5.0000000000e+00    2.2000000000e+00    4.9627992577e+00    4.9628403439e+00    3.2413647577e-01    6.4277469618e-02   -1.8600371127e-03    0.0000000000e+00    1.8600371127e-03
      44    2.2000000000e-04    5.0000000000e+00    2.2000000000e+00    4.9628033470e+00    4.9628441110e+00    3.3034586988e-01    6.6897662517e-02   -1.8598326504e-03    0.0000000000e+00    1.8598326504e-03
      45    2.2500000000e-04    5.0000000000e+00    2.2000000000e+00    4.9628074043e+00    4.9628478515e+00    3.3650693319e-01    6.9553243803e-02   -1.8596297831e-03    0.0000000000e+00    1.8596297831e-03
      46    2.3000000000e-04    5.0000000000e+00    2.2000000000e+00    4.9628114303e+00    4.9628515658e+00    3.4262046164e-01    7.2243386047e-02   -1.8594284844e-03    0.0000000000e+00    1.8594284844e-03
      47    2.3500000000e-04    5.0000000000e+00    2.2000000000e+00    4.9628154254e+00    4.9628552544e+00    3.4868723593e-01    7.4967277869e-02   -1.8592287286e-03    0.0000000000e+00    1.8592287286e-03
      48    2.4000000000e-04    5.0000000000e+00    2.2000000000e+00    4.9628193902e+00    4.9628589176e+00    3.5470802191e-01    7.7724123625e-02   -1.8590304904e-03    0.0000000000e+00    1.8590304904e-03
      49    2.4500000000e-04    5.0000000000e+00    2.2000000000e+00    4.9628233251e+00    4.9628625559e+00    3.6068357085e-01    8.0513143106e-02   -1.8588337450e-03    0.0000000000e+00    1.8588337450e-03
      50    2.5000000000e-04    5.0000000000e+00    2.2000000000e+00    4.9628272306e+00    4.9628661697e+00    3.6661461979e-01    8.3333571239e-02   -1.8586384680e-03    0.0000000000e+00    1.8586384680e-03
      51    2.5500000000e-04    5.0000000000e+00    2.2000000000e+00    4.9628311073e+00    4.9628697593e+00    3.7250189179e-01    8.6184657800e-02   -1.8584446356e-03    0.0000000000e+00    1.8584446356e-03
      52    2.6000000000e-04    5.0000000000e+00    2.2000000000e+00    4.9628349555e+00    4.9628733252e+00    3.7834609628e-01    8.9065667128e-02   -1.8582522244e-03    0.0000000000e+00    1.8582522244e-03
      53    2.6500000000e-04    5.0000000000e+00    2.2000000000e+00    4.9628387758e+00    4.9628768676e+00    3.8414792930e-01    9.1975877848e-02   -1.8580612113e-03    0.0000000000e+00    1.8580612113e-03
      54    2.7000000000e-04    5.0000000000e+00    2.2000000000e+00    4.9628425685e+00    4.9628803870e+00    3.8990807381e-01    9.4914582593e-02   -1.8578715739e-03    0.0000000000e+00    1.8578715739e-03
      55    2.7500000000e-04    5.0000000000e+00    2.2000000000e+00    4.9628463342e+00    4.9628838838e+00    3.9562719998e-01    9.7881087743e-02   -1.8576832899e-03    0.0000000000e+00    1.8576832899e-03
      56    2.8000000000e-04    5.0000000000e+00    2.2000000000e+00    4.9628500732e+00    4.9628873582e+00    4.0130596539e-01    1.0087471316e-01   -1.8574963377e-03    0.0000000000e+00    1.8574963377e-03
      57    2.8500000000e-04    5.0000000000e+00    2.2000000000e+00    4.9628537861e+00    4.9628908106e+00    4.0694501539e-01    1.0389479192e-01   -1.8573106959e-03    0.0000000000e+00    1.8573106959e-03
      58    2.9000000000e-04    5.0000000000e+00    2.2000000000e+00    4.9628574731e+00    4.9628942414e+00    4.1254498325e-01    1.0694067008e-01   -1.8571263438e-03    0.0000000000e+00    1.8571263438e-03
      59    2.9500000000e-04    5.0000000000e+00    2.2000000000e+00    4.9628611348e+00    4.9628976509e+00    4.1810649052e-01    1.1001170643e-01   -1.8569432606e-03    0.0000000000e+00    1.8569432606e-03
      60    3.0000000000e-04    5.0000000000e+00    2.2000000000e+00    4.9628647715e+00    4.9629010394e+00    4.2363014717e-01    1.1310727222e-01   -1.8567614263e-03    0.0000000000e+00    1.8567614263e-03
      61    3.0500000000e-04    5.0000000000e+00    2.2000000000e+00    4.9628683836e+00    4.9629044072e+00    4.2911655190e-01    1.1622675097e-01   -1.8565808211e-03    0.0000000000e+00    1.8565808211e-03
      62    3.1000000000e-04    5.0000000000e+00    2.2000000000e+00    4.9628719715e+00    4.9629077547e+00    4.3456629236e-01    1.1936953819e-01   -1.8564014257e-03    0.0000000000e+00    1.8564014257e-03
      63    3.1500000000e-04    5.0000000000e+00    2.2000000000e+00    4.9628755356e+00    4.9629110822e+00    4.3997994533e-01    1.2253504120e-01   -1.8562232209e-03    0.0000000000e+00    1.8562232209e-03
      64    3.2000000000e-04    5.0000000000e+00    2.2000000000e+00    4.9628790762e+00    4.9629143899e+00    4.4535807703e-01    1.2572267887e-01   -1.8560461881e-03    0.0000000000e+00    1.8560461881e-03
      65    3.2500000000e-04    5.0000000000e+00    2.2000000000e+00    4.9628825938e+00    4.9629176782e+00    4.5070124325e-01    1.2893188140e-01   -1.8558703089e-03    0.0000000000e+00    1.8558703089e-03
      66    3.3000000000e-04    5.0000000000e+00    2.2000000000e+00    4.9628860887e+00    4.9629209474e+00    4.5600998962e-01    1.3216209013e-01   -1.8556955652e-03    0.0000000000e+00    1.8556955652e-03
      67    3.3500000000e-04    5.0000000000e+00    2.2000000000e+00    4.9628895612e+00    4.9629241978e+00    4.6128485180e-01    1.3541275732e-01   -1.8555219396e-03    0.0000000000e+00    1.8555219396e-03
      68    3.4000000000e-04    5.0000000000e+00    2.2000000000e+00    4.9628930117e+00    4.9629274295e+00    4.6652635568e-01    1.3868334594e-01   -1.8553494144e-03    0.0000000000e+00    1.8553494144e-03
      69    3.4500000000e-04    5.0000000000e+00    2.2000000000e+00    4.9628964405e+00    4.9629306430e+00    4.7173501756e-01    1.4197332947e-01   -1.8551779728e-03    0.0000000000e+00    1.8551779728e-03
      70    3.5000000000e-04    5.0000000000e+00    2.2000000000e+00    4.9628998480e+00    4.9629338385e+00    4.7691134441e-01    1.4528219168e-01   -1.8550075979e-03    0.0000000000e+00    1.8550075979e-03
      71    3.5500000000e-04    5.0000000000e+00    2.2000000000e+00    4.9629032345e+00    4.9629370162e+00    4.8205583399e-01    1.4860942648e-01   -1.8548382734e-03    0.0000000000e+00    1.8548382734e-03
      72    3.6000000000e-04    5.0000000000e+00    2.2000000000e+00    4.9629066003e+00    4.9629401764e+00    4.8716897506e-01    1.5195453769e-01   -1.8546699830e-03    0.0000000000e+00    1.8546699830e-03
      73    3.6500000000e-04    5.0000000000e+00    2.2000000000e+00    4.9629099458e+00    4.9629433195e+00    4.9225124756e-01    1.5531703888e-01   -1.8545027110e-03    0.0000000000e+00    1.8545027110e-03
      74    3.7000000000e-04    5.0000000000e+00    2.2000000000e+00    4.9629132712e+00    4.9629464455e+00    4.9730312281e-01    1.5869645317e-01   -1.8543364418e-03    0.0000000000e+00    1.8543364418e-03
      75    3.7500000000e-04    5.0000000000e+00    2.2000000000e+00    4.9629165768e+00    4.9629495549e+00    5.0232506366e-01    1.6209231304e-01   -1.8541711600e-03    0.0000000000e+00    1.8541711600e-03
      76    3.8000000000e-04    5.0000000000e+00    2.2000000000e+00    4.9629198630e+00    4.9629526477e+00    5.0731752466e-01    1.6550416019e-01   -1.8540068508e-03    0.0000000000e+00    1.8540068508e-03
      77    3.8500000000e-04    5.0000000000e+00    2.2000000000e+00    4.9629231300e+00    4.9629557244e+00    5.1228095222e-01    1.6893154533e-01   -1.8538434993e-03    0.0000000000e+00    1.8538434993e-03
      78    3.9000000000e-04    5.0000000000e+00    2.2000000000e+00    4.9629263782e+00    4.9629587850e+00    5.1721578480e-01    1.7237402804e-01   -1.8536810911e-03    0.0000000000e+00    1.8536810911e-03
      79    3.9500000000e-04    5.0000000000e+00    2.2000000000e+00    4.9629296078e+00    4.9629618299e+00    5.2212245306e-01    1.7583117657e-01   -1.8535196119e-03    0.0000000000e+00    1.8535196119e-03
      80    4.0000000000e-04    5.0000000000e+00    2.2000000000e+00    4.9629328190e+00    4.9629648593e+00    5.2700137999e-01    1.7930256772e-01   -1.8533590478e-03    0.0000000000e+00    1.8533590478e-03
      81    4.0500000000e-04    5.0000000000e+00    2.2000000000e+00    4.9629360123e+00    4.9629678734e+00    5.3185298110e-01    1.8278778663e-01   -1.8531993851e-03    0.0000000000e+00    1.8531993851e-03
      82    4.1000000000e-04    5.0000000000e+00    2.2000000000e+00    4.9629391878e+00    4.9629708724e+00    5.3667766452e-01    1.8628642667e-01   -1.8530406103e-03    0.0000000000e+00    1.8530406103e-03
      83    4.1500000000e-04    5.0000000000e+00    2.2000000000e+00    4.9629423458e+00    4.9629738565e+00    5.4147583120e-01    1.8979808926e-01   -1.8528827102e-03    0.0000000000e+00    1.8528827102e-03
      84    4.2000000000e-04    5.0000000000e+00    2.2000000000e+00    4.9629454866e+00    4.9629768259e+00    5.4624787504e-01    1.9332238372e-01   -1.8527256717e-03    0.0000000000e+00    1.8527256717e-03
      85    4.2500000000e-04    5.0000000000e+00    2.2000000000e+00    4.9629486104e+00    4.9629797810e+00    5.5099418297e-01    1.9685892714e-01   -1.8525694821e-03    0.0000000000e+00    1.8525694821e-03
      86    4.3000000000e-04    5.0000000000e+00    2.2000000000e+00    4.9629517174e+00    4.9629827218e+00    5.5571513519e-01    2.0040734420e-01   -1.8524141288e-03    0.0000000000e+00    1.8524141288e-03
      87    4.3500000000e-04    5.0000000000e+00    2.2000000000e+00    4.9629548080e+00    4.9629856485e+00    5.6041110521e-01    2.0396726707e-01   -1.8522595995e-03    0.0000000000e+00    1.8522595995e-03
      88    4.4000000000e-04    5.0000000000e+00    2.2000000000e+00    4.9629578824e+00    4.9629885615e+00    5.6508246002e-01    2.0753833525e-01   -1.8521058821e-03    0.0000000000e+00    1.8521058821e-03
      89    4.4500000000e-04    5.0000000000e+00    2.2000000000e+00    4.9629609407e+00    4.9629914608e+00    5.6972956024e-01    2.1112019540e-01   -1.8519529646e-03    0.0000000000e+00    1.8519529646e-03
      90    4.5000000000e-04    5.0000000000e+00    2.2000000000e+00    4.9629639833e+00    4.9629943466e+00    5.7435276020e-01    2.1471250129e-01   -1.8518008355e-03    0.0000000000e+00    1.8518008355e-03
      91    4.5500000000e-04    5.0000000000e+00    2.2000000000e+00    4.9629670103e+00    4.9629972192e+00    5.7895240809e-01    2.1831491357e-01   -1.8516494831e-03    0.0000000000e+00    1.8516494831e-03
