Circuit: Level 4 - BJT two capacitor transient

Transient Analysis
No. of Data Rows : 101

----------------------------------------------------------------------------------------------------------------------------------------------------
Index   time                v(vcc)              v(base)             v(coll)             v(emit)             vcc#branch          vbb#branch
----------------------------------------------------------------------------------------------------------------------------------------------------
       0    0.0000000000e+00    0.0000000000e+00    0.0000000000e+00    0.0000000000e+00    0.0000000000e+00    0.0000000000e+00    0.0000000000e+00
       1    1.0000000000e-05    5.0000000000e+00    7.2000000000e-01    4.9060641950e-02    7.6781357475e-04   -2.4754696790e-03   -1.9885448854e-05
       2    2.0000000000e-05    5.0000000000e+00    7.2000000000e-01    9.6209721783e-02    1.8252725886e-03   -2.4518951391e-03   -4.1754273012e-06
       3    3.0000000000e-05    5.0000000000e+00    7.2000000000e-01    1.4274735466e-01    2.8474382713e-03   -2.4286263227e-03   -1.6141361974e-06
       4    4.0000000000e-05    5.0000000000e+00    7.2000000000e-01    1.8886756761e-01    3.7924326149e-03   -2.4055662162e-03   -1.1595475153e-06
       5    5.0000000000e-05    5.0000000000e+00    7.2000000000e-01    2.3459708979e-01    4.6605304557e-03   -2.3827014551e-03   -1.0546078233e-06
       6    6.0000000000e-05    5.0000000000e+00    7.2000000000e-01    2.7993682036e-01    5.4579363672e-03   -2.3600315898e-03   -1.0112090718e-06
       7    7.0000000000e-05    5.0000000000e+00    7.2000000000e-01    3.2488436761e-01    6.1910982067e-03   -2.3375578162e-03   -9.8096704790e-07
       8    8.0000000000e-05    5.0000000000e+00    7.2000000000e-01    3.6943758574e-01    6.8658837210e-03   -2.3152812071e-03   -9.5534774461e-07
       9    9.0000000000e-05    5.0000000000e+00    7.2000000000e-01    4.1359503077e-01    7.4875332810e-03   -2.2932024846e-03   -9.3258738361e-07
      10    1.0000000000e-04    5.0000000000e+00    7.2000000000e-01    4.5735592938e-01    8.0607256146e-03   -2.2713220353e-03   -9.1212636622e-07
      11    1.1000000000e-04    5.0000000000e+00    7.2000000000e-01    5.0072008571e-01    8.5896498984e-03   -2.2496399571e-03   -8.9365207001e-07
      12    1.2000000000e-04    5.0000000000e+00    7.2000000000e-01    5.4368779339e-01    9.0780688499e-03   -2.2281561033e-03   -8.7692648394e-07
      13    1.3000000000e-04    5.0000000000e+00    7.2000000000e-01    5.8625976092e-01    9.5293721865e-03   -2.2068701195e-03   -8.6175055865e-07
      14    1.4000000000e-04    5.0000000000e+00    7.2000000000e-01    6.2843704947e-01    9.9466218773e-03   -2.1857814753e-03   -8.4795355516e-07
      15    1.5000000000e-04    5.0000000000e+00    7.2000000000e-01    6.7022102079e-01    1.0332590636e-02   -2.1648894896e-03   -8.3538766525e-07
      16    1.6000000000e-04    5.0000000000e+00    7.2000000000e-01    7.1161329351e-01    1.0689794851e-02   -2.1441933532e-03   -8.2392423046e-07
      17    1.7000000000e-04    5.0000000000e+00    7.2000000000e-01    7.5261570621e-01    1.1020522918e-02   -2.1236921469e-03   -8.1345076297e-07
      18    1.8000000000e-04    5.0000000000e+00    7.2000000000e-01    7.9323028604e-01    1.1326859741e-02   -2.1033848570e-03   -8.0386851848e-07
      19    1.9000000000e-04    5.0000000000e+00    7.2000000000e-01    8.3345922202e-01    1.1610708029e-02   -2.0832703890e-03   -7.9509049426e-07
      20    2.0000000000e-04    5.0000000000e+00    7.2000000000e-01    8.7330484208e-01    1.1873806885e-02   -2.0633475790e-03   -7.8703976628e-07
      21    2.1000000000e-04    5.0000000000e+00    7.2000000000e-01    9.1276959338e-01    1.2117748110e-02   -2.0436152033e-03   -7.7964809998e-07
      22    2.2000000000e-04    5.0000000000e+00    7.2000000000e-01    9.5185602522e-01    1.2343990555e-02   -2.0240719874e-03   -7.7285478389e-07
      23    2.3000000000e-04    5.0000000000e+00    7.2000000000e-01    9.9056677433e-01    1.2553872799e-02   -2.0047166128e-03   -7.6660564542e-07
      24    2.4000000000e-04    5.0000000000e+00    7.2000000000e-01    1.0289045520e+00    1.2748624394e-02   -1.9855477240e-03   -7.6085221671e-07
      25    2.5000000000e-04    5.0000000000e+00    7.2000000000e-01    1.0668721328e+00    1.2929375865e-02   -1.9665639336e-03   -7.5555102463e-07
      26    2.6000000000e-04    5.0000000000e+00    7.2000000000e-01    1.1044723449e+00    1.3097167634e-02   -1.9477638276e-03   -7.5066298378e-07
      27    2.7000000000e-04    5.0000000000e+00    7.2000000000e-01    1.1417080613e+00    1.3252958005e-02   -1.9291459694e-03   -7.4615287566e-07
      28    2.8000000000e-04    5.0000000000e+00    7.2000000000e-01    1.1785821923e+00    1.3397630324e-02   -1.9107089038e-03   -7.4198890000e-07
      29    2.9000000000e-04    5.0000000000e+00    7.2000000000e-01    1.2150976790e+00    1.3531999426e-02   -1.8924511605e-03   -7.3814228691e-07
      30    3.0000000000e-04    5.0000000000e+00    7.2000000000e-01    1.2512574868e+00    1.3656817436e-02   -1.8743712566e-03   -7.3458696035e-07
      31    3.1000000000e-04    5.0000000000e+00    7.2000000000e-01    1.2870646010e+00    1.3772779018e-02   -1.8564676995e-03   -7.3129924529e-07
      32    3.2000000000e-04    5.0000000000e+00    7.2000000000e-01    1.3225220213e+00    1.3880526122e-02   -1.8387389893e-03   -7.2825761196e-07
      33    3.3000000000e-04    5.0000000000e+00    7.2000000000e-01    1.3576327584e+00    1.3980652290e-02   -1.8211836208e-03   -7.2544245186e-07
      34    3.4000000000e-04    5.0000000000e+00    7.2000000000e-01    1.3923998298e+00    1.4073706566e-02   -1.8038000851e-03   -7.2283588100e-07
      35    3.5000000000e-04    5.0000000000e+00    7.2000000000e-01    1.4268262566e+00    1.4160197059e-02   -1.7865868717e-03   -7.2042156656e-07
      36    3.6000000000e-04    5.0000000000e+00    7.2000000000e-01    1.4609150607e+00    1.4240594182e-02   -1.7695424696e-03   -7.1818457385e-07
      37    3.7000000000e-04    5.0000000000e+00    7.2000000000e-01    1.4946692623e+00    1.4315333616e-02   -1.7526653688e-03   -7.1611123062e-07
      38    3.8000000000e-04    5.0000000000e+00    7.2000000000e-01    1.5280918772e+00    1.4384819012e-02   -1.7359540614e-03   -7.1418900677e-07
      39    3.9000000000e-04    5.0000000000e+00    7.2000000000e-01    1.5611859148e+00    1.4449424468e-02   -1.7194070426e-03   -7.1240640716e-07
      40    4.0000000000e-04    5.0000000000e+00    7.2000000000e-01    1.5939543766e+00    1.4509496798e-02   -1.7030228117e-03   -7.1075287608e-07
      41    4.1000000000e-04    5.0000000000e+00    7.2000000000e-01    1.6264002539e+00    1.4565357608e-02   -1.6867998730e-03   -7.0921871175e-07
      42    4.2000000000e-04    5.0000000000e+00    7.2000000000e-01    1.6585265268e+00    1.4617305204e-02   -1.6707367366e-03   -7.0779498984e-07
      43    4.3000000000e-04    5.0000000000e+00    7.2000000000e-01    1.6903361626e+00    1.4665616351e-02   -1.6548319187e-03   -7.0647349473e-07
      44    4.4000000000e-04    5.0000000000e+00    7.2000000000e-01    1.7218321147e+00    1.4710547878e-02   -1.6390839426e-03   -7.0524665767e-07
      45    4.5000000000e-04    5.0000000000e+00    7.2000000000e-01    1.7530173214e+00    1.4752338171e-02   -1.6234913393e-03   -7.0410750112e-07
      46    4.6000000000e-04    5.0000000000e+00    7.2000000000e-01    1.7838947051e+00    1.4791208531e-02   -1.6080526474e-03   -7.0304958844e-07
      47    4.7000000000e-04    5.0000000000e+00    7.2000000000e-01    1.8144671713e+00    1.4827364440e-02   -1.5927664144e-03   -7.0206697842e-07
      48    4.8000000000e-04    5.0000000000e+00    7.2000000000e-01    1.8447376078e+00    1.4860996722e-02   -1.5776311961e-03   -7.0115418410e-07
      49    4.9000000000e-04    5.0000000000e+00    7.2000000000e-01    1.8747088842e+00    1.4892282616e-02   -1.5626455579e-03   -7.0030613537e-07
      50    5.0000000000e-04    5.0000000000e+00    7.2000000000e-01    1.9043838513e+00    1.4921386763e-02   -1.5478080744e-03   -6.9951814508e-07
      51    5.1000000000e-04    5.0000000000e+00    7.2000000000e-01    1.9337653402e+00    1.4948462125e-02   -1.5331173299e-03   -6.9878587811e-07
      52    5.2000000000e-04    5.0000000000e+00    7.2000000000e-01    1.9628561622e+00    1.4973650830e-02   -1.5185719189e-03   -6.9810532322e-07
      53    5.3000000000e-04    5.0000000000e+00    7.2000000000e-01    1.9916591084e+00    1.4997084954e-02   -1.5041704458e-03   -6.9747276743e-07
      54    5.4000000000e-04    5.0000000000e+00    7.2000000000e-01    2.0201769490e+00    1.5018887244e-02   -1.4899115255e-03   -6.9688477256e-07
      55    5.5000000000e-04    5.0000000000e+00    7.2000000000e-01    2.0484124334e+00    1.5039171790e-02   -1.4757937833e-03   -6.9633815378e-07
      56    5.6000000000e-04    5.0000000000e+00    7.2000000000e-01    2.0763682894e+00    1.5058044641e-02   -1.4618158553e-03   -6.9582996000e-07
      57    5.7000000000e-04    5.0000000000e+00    7.2000000000e-01    2.1040472237e+00    1.5075604386e-02   -1.4479763882e-03   -6.9535745592e-07
      58    5.8000000000e-04    5.0000000000e+00    7.2000000000e-01    2.1314519209e+00    1.5091942682e-02   -1.4342740395e-03   -6.9491810553e-07
      59    5.9000000000e-04    5.0000000000e+00    7.2000000000e-01    2.1585850441e+00    1.5107144747e-02   -1.4207074779e-03   -6.9450955697e-07
      60    6.0000000000e-04    5.0000000000e+00    7.2000000000e-01    2.1854492341e+00    1.5121289820e-02   -1.4072753829e-03   -6.9412962865e-07
      61    6.1000000000e-04    5.0000000000e+00    7.2000000000e-01    2.2120471098e+00    1.5134451586e-02   -1.3939764451e-03   -6.9377629645e-07
      62    6.2000000000e-04    5.0000000000e+00    7.2000000000e-01    2.2383812677e+00    1.5146698565e-02   -1.3808093661e-03   -6.9344768195e-07
      63    6.3000000000e-04    5.0000000000e+00    7.2000000000e-01    2.2644542823e+00    1.5158094481e-02   -1.3677728588e-03   -6.9314204162e-07
      64    6.4000000000e-04    5.0000000000e+00    7.2000000000e-01    2.2902687057e+00    1.5168698600e-02   -1.3548656471e-03   -6.9285775685e-07
      65    6.5000000000e-04    5.0000000000e+00    7.2000000000e-01    2.3158270677e+00    1.5178566043e-02   -1.3420864661e-03   -6.9259332470e-07
      66    6.6000000000e-04    5.0000000000e+00    7.2000000000e-01    2.3411318759e+00    1.5187748083e-02   -1.3294340621e-03   -6.9234734944e-07
      67    6.7000000000e-04    5.0000000000e+00    7.2000000000e-01    2.3661856154e+00    1.5196292406e-02   -1.3169071923e-03   -6.9211853472e-07
      68    6.8000000000e-04    5.0000000000e+00    7.2000000000e-01    2.3909907494e+00    1.5204243375e-02   -1.3045046253e-03   -6.9190567631e-07
      69    6.9000000000e-04    5.0000000000e+00    7.2000000000e-01    2.4155497187e+00    1.5211642255e-02   -1.2922251406e-03   -6.9170765541e-07
      70    7.0000000000e-04    5.0000000000e+00    7.2000000000e-01    2.4398649420e+00    1.5218527432e-02   -1.2800675290e-03   -6.9152343247e-07
      71    7.1000000000e-04    5.0000000000e+00    7.2000000000e-01    2.4639388159e+00    1.5224934619e-02   -1.2680305920e-03   -6.9135204148e-07
      72    7.2000000000e-04    5.0000000000e+00    7.2000000000e-01    2.4877737151e+00    1.5230897038e-02   -1.2561131425e-03   -6.9119258466e-07
      73    7.3000000000e-04    5.0000000000e+00    7.2000000000e-01    2.5113719923e+00    1.5236445597e-02   -1.2443140039e-03   -6.9104422757e-07
      74    7.4000000000e-04    5.0000000000e+00    7.2000000000e-01    2.5347359785e+00    1.5241609052e-02   -1.2326320108e-03   -6.9090619455e-07
      75    7.5000000000e-04    5.0000000000e+00    7.2000000000e-01    2.5578679829e+00    1.5246414158e-02   -1.2210660085e-03   -6.9077776456e-07
      76    7.6000000000e-04    5.0000000000e+00    7.2000000000e-01    2.5807702933e+00    1.5250885806e-02   -1.2096148533e-03   -6.9065826723e-07
      77    7.7000000000e-04    5.0000000000e+00    7.2000000000e-01    2.6034451758e+00    1.5255047155e-02   -1.1982774121e-03   -6.9054707930e-07
      78    7.8000000000e-04    5.0000000000e+00    7.2000000000e-01    2.6258948754e+00    1.5258919755e-02   -1.1870525623e-03   -6.9044362125e-07
      79    7.9000000000e-04    5.0000000000e+00    7.2000000000e-01    2.6481216156e+00    1.5262523657e-02   -1.1759391922e-03   -6.9034735419e-07
      80    8.0000000000e-04    5.0000000000e+00    7.2000000000e-01    2.6701275991e+00    1.5265877514e-02   -1.1649362004e-03   -6.9025777699e-07
      81    8.1000000000e-04    5.0000000000e+00    7.2000000000e-01    2.6919150076e+00    1.5268998688e-02   -1.1540424962e-03   -6.9017442361e-07
      82    8.2000000000e-04    5.0000000000e+00    7.2000000000e-01    2.7134860018e+00    1.5271903330e-02   -1.1432569991e-03   -6.9009686062e-07
      83    8.3000000000e-04    5.0000000000e+00    7.2000000000e-01    2.7348427220e+00    1.5274606470e-02   -1.1325786390e-03   -6.9002468491e-07
      84    8.4000000000e-04    5.0000000000e+00    7.2000000000e-01    2.7559872878e+00    1.5277122094e-02   -1.1220063561e-03   -6.8995752151e-07
      85    8.5000000000e-04    5.0000000000e+00    7.2000000000e-01    2.7769217986e+00    1.5279463215e-02   -1.1115391007e-03   -6.8989502168e-07
      86    8.6000000000e-04    5.0000000000e+00    7.2000000000e-01    2.7976483335e+00    1.5281641945e-02   -1.1011758333e-03   -6.8983686100e-07
      87    8.7000000000e-04    5.0000000000e+00    7.2000000000e-01    2.8181689515e+00    1.5283669550e-02   -1.0909155242e-03   -6.8978273769e-07
      88    8.8000000000e-04    5.0000000000e+00    7.2000000000e-01    2.8384856920e+00    1.5285556519e-02   -1.0807571540e-03   -6.8973237103e-07
      89    8.9000000000e-04    5.0000000000e+00    7.2000000000e-01    2.8586005742e+00    1.5287312609e-02   -1.0706997129e-03   -6.8968549987e-07
      90    9.0000000000e-04    5.0000000000e+00    7.2000000000e-01    2.8785155982e+00    1.5288946900e-02   -1.0607422009e-03   -6.8964188124e-07
      91    9.1000000000e-04    5.0000000000e+00    7.2000000000e-01    2.8982327442e+00    1.5290467844e-02   -1.0508836279e-03   -6.8960128913e-07
      92    9.2000000000e-04    5.0000000000e+00    7.2000000000e-01    2.9177539736e+00    1.5291883302e-02   -1.0411230132e-03   -6.8956351324e-07
      93    9.3000000000e-04    5.0000000000e+00    7.2000000000e-01    2.9370812285e+00    1.5293200594e-02   -1.0314593858e-03   -6.8952835794e-07
      94    9.4000000000e-04    5.0000000000e+00    7.2000000000e-01    2.9562164319e+00    1.5294426529e-02   -1.0218917840e-03   -6.8949564119e-07
      95    9.5000000000e-04    5.0000000000e+00    7.2000000000e-01    2.9751614884e+00    1.5295567444e-02   -1.0124192558e-03   -6.8946519363e-07
      96    9.6000000000e-04    5.0000000000e+00    7.2000000000e-01    2.9939182836e+00    1.5296629237e-02   -1.0030408582e-03   -6.8943685769e-07
      97    9.7000000000e-04    5.0000000000e+00    7.2000000000e-01    3.0124886850e+00    1.5297617396e-02   -9.9375565748e-04   -6.8941048675e-07
      98    9.8000000000e-04    5.0000000000e+00    7.2000000000e-01    3.0308745417e+00    1.5298537028e-02   -9.8456272916e-04   -6.8938594437e-07
      99    9.9000000000e-04    5.0000000000e+00    7.2000000000e-01    3.0490776845e+00    1.5299392886e-02   -9.7546115777e-04   -6.8936310363e-07
     100    1.0000000000e-03    5.0000000000e+00    7.2000000000e-01    3.0670999264e+00    1.5300189394e-02   -9.6645003681e-04   -6.8934184641e-07
